
T32A4 1075:845 SEGGER J-Link V6.46 Log File (0002ms, 0019ms total)
T32A4 1075:845 DLL Compiled: May 23 2019 17:49:56 (0003ms, 0020ms total)
T32A4 1075:845 Logging started @ 2020-03-26 13:56 (0003ms, 0020ms total)
T32A4 1075:848 JLINK_SetWarnOutHandler(...) (0001ms, 0021ms total)
T32A4 1075:849 JLINK_OpenEx(...)
Firmware: J-Link V10 compiled Jun 14 2019 19:25:26
Hardware: V10.10
S/N: 600107988
Feature(s): RDI, FlashBP, FlashDL, JFlash, GDB
TELNET listener socket opened on port 19021WEBSRV 
Starting webserver (0083ms, 0104ms total)
T32A4 1075:849 WEBSRV Webserver running on local port 19080 (0084ms, 0105ms total)
T32A4 1075:849   returns O.K. (0084ms, 0105ms total)
T32A4 1075:933 JLINK_GetEmuCaps()  returns 0xB9FF7BBF (0000ms, 0105ms total)
T32A4 1075:933 JLINK_TIF_GetAvailable(...) (0000ms, 0105ms total)
T32A4 1075:933 JLINK_SetErrorOutHandler(...) (0000ms, 0105ms total)
T32A4 1075:933 JLINK_ExecCommand("ProjectFile = "C:\work\SE\Openmv\OpenMV-ac6\ports\prj_keil_rt1060_evk\JLinkSettings.ini"", ...). Device "CORTEX-M7" selected.  returns 0x00 (0046ms, 0151ms total)
T32A4 1075:979 JLINK_ExecCommand("Device = MIMXRT1062DVL6A", ...). Device "MIMXRT1064XXX6A" selected.  returns 0x00 (0009ms, 0160ms total)
T32A4 1075:988 JLINK_ExecCommand("DisableConnectionTimeout", ...).   returns 0x01 (0000ms, 0160ms total)
T32A4 1075:988 JLINK_GetHardwareVersion()  returns 0x18A88 (0000ms, 0160ms total)
T32A4 1075:988 JLINK_GetDLLVersion()  returns 64600 (0000ms, 0160ms total)
T32A4 1075:988 JLINK_GetFirmwareString(...) (0000ms, 0160ms total)
T32A4 1075:988 JLINK_GetDLLVersion()  returns 64600 (0000ms, 0160ms total)
T32A4 1075:988 JLINK_GetCompileDateTime() (0000ms, 0160ms total)
T32A4 1075:988 JLINK_GetFirmwareString(...) (0000ms, 0160ms total)
T32A4 1075:988 JLINK_GetHardwareVersion()  returns 0x18A88 (0000ms, 0160ms total)
T32A4 1075:988 JLINK_TIF_Select(JLINKARM_TIF_SWD)  returns 0x00 (0002ms, 0162ms total)
T32A4 1075:990 JLINK_SetSpeed(5000) (0001ms, 0163ms total)
T32A4 1075:991 JLINK_GetId() >0x10B TIF>Found SW-DP with ID 0x0BD11477 >0x0D TIF> >0x28 TIF> >0x0D TIF> >0x28 TIF> >0x0D TIF> >0x28 TIF> >0x0D TIF> >0x28 TIF> >0x0D TIF> >0x21 TIF> >0x0D TIF> >0x28 TIF>Scanning AP map to find all available APs >0x0D TIF> >0x28 TIF> >0x0D TIF> >0x21 TIF> >0x0D TIF> >0x21 TIF> >0x0D TIF> >0x28 TIF> >0x0D TIF> >0x21 TIF> >0x0D TIF> >0x21 TIF>AP[1]: Stopped AP scan as end of AP map has been reachedAP[0]: AHB-AP (IDR: 0x04770041)Iterating through AP map to find AHB-AP to use
 >0x42 TIF> >0x28 TIF> >0x0D TIF> >0x28 TIF> >0x0D TIF> >0x21 TIF> >0x0D TIF> >0x21 TIF> >0x42 TIF> >0x28 TIF> >0x0D TIF> >0x28 TIF> >0x0D TIF> >0x28 TIF> >0x0D TIF> >0x21 TIF> >0x0D TIF> >0x21 TIF>AP[0]: Core foundAP[0]: AHB-AP ROM base: 0xE00FD000 >0x0D TIF> >0x28 TIF> >0x0D TIF> >0x28 TIF> >0x0D TIF> >0x28 TIF> >0x0D TIF> >0x21 TIF> >0x0D TIF> >0x21 TIF>CPUID register: 0x411FC271. Implementer code: 0x41 (ARM)Found Cortex-M7 r1p1, Little endian. -- Max. mem block: 0x000035E8
 -- CPU_ReadMem(4 bytes @ 0xE000EDF0) -- CPU_WriteMem(4 bytes @ 0xE000EDF0) -- CPU_ReadMem(4 bytes @ 0xE0002000)FPUnit: 8 code (BP) slots and 0 literal slots -- CPU_ReadMem(4 bytes @ 0xE000EDFC) -- CPU_WriteMem(4 bytes @ 0xE000EDFC) -- CPU_ReadMem(4 bytes @ 0xE0001000) -- CPU_WriteMem(4 bytes @ 0xE0001000) -- CPU_ReadMem(4 bytes @ 0xE000ED88) -- CPU_WriteMem(4 bytes @ 0xE000ED88) -- CPU_ReadMem(4 bytes @ 0xE000ED88) -- CPU_WriteMem(4 bytes @ 0xE000ED88)CoreSight components:ROMTbl[0] @ E00FD000
 -- CPU_ReadMem(16 bytes @ 0xE00FD000) -- CPU_ReadMem(16 bytes @ 0xE00FEFF0) -- CPU_ReadMem(16 bytes @ 0xE00FEFE0)ROMTbl[0][0]: E00FE000, CID: B105100D, PID: 000BB4C8 ROM TableROMTbl[1] @ E00FE000 -- CPU_ReadMem(16 bytes @ 0xE00FE000) -- CPU_ReadMem(16 bytes @ 0xE00FFFF0) -- CPU_ReadMem(16 bytes @ 0xE00FFFE0)ROMTbl[1][0]: E00FF000, CID: B105100D, PID: 000BB4C7 ROM TableROMTbl[2] @ E00FF000 -- CPU_ReadMem(16 bytes @ 0xE00FF000) -- CPU_ReadMem(16 bytes @ 0xE000EFF0) -- CPU_ReadMem(16 bytes @ 0xE000EFE0)
ROMTbl[2][0]: E000E000, CID: B105E00D, PID: 000BB00C SCS-M7 -- CPU_ReadMem(16 bytes @ 0xE0001FF0) -- CPU_ReadMem(16 bytes @ 0xE0001FE0)ROMTbl[2][1]: E0001000, CID: B105E00D, PID: 000BB002 DWT -- CPU_ReadMem(16 bytes @ 0xE0002FF0) -- CPU_ReadMem(16 bytes @ 0xE0002FE0)ROMTbl[2][2]: E0002000, CID: B105E00D, PID: 000BB00E FPB-M7 -- CPU_ReadMem(16 bytes @ 0xE0000FF0) -- CPU_ReadMem(16 bytes @ 0xE0000FE0)ROMTbl[2][3]: E0000000, CID: B105E00D, PID: 000BB001 ITM -- CPU_ReadMem(16 bytes @ 0xE00FF010)
 -- CPU_ReadMem(16 bytes @ 0xE0041FF0) -- CPU_ReadMem(16 bytes @ 0xE0041FE0)ROMTbl[1][1]: E0041000, CID: B105900D, PID: 001BB975 ETM-M7 -- CPU_ReadMem(16 bytes @ 0xE0042FF0) -- CPU_ReadMem(16 bytes @ 0xE0042FE0)ROMTbl[1][2]: E0042000, CID: B105900D, PID: 004BB906 CTI -- CPU_ReadMem(16 bytes @ 0xE00FE010) -- CPU_ReadMem(16 bytes @ 0xE0040FF0) -- CPU_ReadMem(16 bytes @ 0xE0040FE0)ROMTbl[0][1]: E0040000, CID: B105900D, PID: 000BB9A9 TPIU-M7 -- CPU_ReadMem(16 bytes @ 0xE0043FF0)
 -- CPU_ReadMem(16 bytes @ 0xE0043FE0)ROMTbl[0][2]: E0043000, CID: B105F00D, PID: 001BB101 TSG -- CPU_ReadMem(16 bytes @ 0xE00FD010) -- CPU_ReadMem(4 bytes @ 0xE000ED78)Cache: Separate I- and D-cache. (0130ms, 0293ms total)
T32A4 1075:991  -- CPU_WriteMem(4 bytes @ 0xE000ED84) -- CPU_ReadMem(4 bytes @ 0xE000ED80)I-Cache L1: 32 KB, 512 Sets, 32 Bytes/Line, 2-Way -- CPU_WriteMem(4 bytes @ 0xE000ED84) -- CPU_ReadMem(4 bytes @ 0xE000ED80)D-Cache L1: 32 KB, 256 Sets, 32 Bytes/Line, 4-Way >0x0D TIF> >0x21 TIF>  returns 0x0BD11477 (0130ms, 0293ms total)
T32A4 1076:121 JLINK_GetDLLVersion()  returns 64600 (0000ms, 0293ms total)
T32A4 1076:121 JLINK_CORE_GetFound()  returns 0xE0100FF (0000ms, 0293ms total)
T32A4 1076:121 JLINK_GetDebugInfo(0x100 = JLINKARM_ROM_TABLE_ADDR_INDEX) -- Value=0xE00FD000  returns 0x00 (0000ms, 0293ms total)
T32A4 1076:121 JLINK_GetDebugInfo(0x100 = JLINKARM_ROM_TABLE_ADDR_INDEX) -- Value=0xE00FD000  returns 0x00 (0000ms, 0293ms total)
T32A4 1076:121 JLINK_GetDebugInfo(0x101 = JLINKARM_DEBUG_INFO_ETM_ADDR_INDEX) -- Value=0xE0041000  returns 0x00 (0000ms, 0293ms total)
T32A4 1076:121 JLINK_ReadMemEx(0xE0041FD0, 0x0020 Bytes, ..., Flags = 0x02000004) -- CPU_ReadMem(32 bytes @ 0xE0041FD0) - Data: 04 00 00 00 00 00 00 00 00 00 00 00 00 00 00 00 ...  returns 0x20 (0001ms, 0294ms total)
T32A4 1076:122 JLINK_GetDebugInfo(0x102 = JLINKARM_DEBUG_INFO_MTB_ADDR_INDEX) -- Value=0x00000000  returns 0x00 (0000ms, 0294ms total)
T32A4 1076:122 JLINK_GetDebugInfo(0x103 = JLINKARM_DEBUG_INFO_TPIU_ADDR_INDEX) -- Value=0xE0040000  returns 0x00 (0000ms, 0294ms total)
T32A4 1076:122 JLINK_GetDebugInfo(0x104 = JLINKARM_DEBUG_INFO_ITM_ADDR_INDEX) -- Value=0xE0000000  returns 0x00 (0000ms, 0294ms total)
T32A4 1076:122 JLINK_GetDebugInfo(0x105 = JLINKARM_DEBUG_INFO_DWT_ADDR_INDEX) -- Value=0xE0001000  returns 0x00 (0000ms, 0294ms total)
T32A4 1076:122 JLINK_GetDebugInfo(0x106 = JLINKARM_DEBUG_INFO_FPB_ADDR_INDEX) -- Value=0xE0002000  returns 0x00 (0000ms, 0294ms total)
T32A4 1076:122 JLINK_GetDebugInfo(0x107 = JLINKARM_DEBUG_INFO_NVIC_ADDR_INDEX) -- Value=0xE000E000  returns 0x00 (0000ms, 0294ms total)
T32A4 1076:122 JLINK_GetDebugInfo(0x10C = JLINKARM_DEBUG_INFO_DBG_ADDR_INDEX) -- Value=0xE000EDF0  returns 0x00 (0000ms, 0294ms total)
T32A4 1076:122 JLINK_GetDebugInfo(0x01 = Unknown) -- Value=0x00000001  returns 0x00 (0000ms, 0294ms total)
T32A4 1076:122 JLINK_ReadMemU32(0xE000ED00, 0x0001 Items, ...) -- CPU_ReadMem(4 bytes @ 0xE000ED00) - Data: 71 C2 1F 41  returns 1 (0000ms, 0294ms total)
T32A4 1076:122 JLINK_GetDebugInfo(0x10F = JLINKARM_DEBUG_INFO_HAS_CORTEX_M_SECURITY_EXT_INDEX) -- Value=0x00000000  returns 0x00 (0000ms, 0294ms total)
T32A4 1076:122 JLINK_SetResetType(JLINKARM_CM3_RESET_TYPE_CORE)  returns JLINKARM_CM3_RESET_TYPE_NORMAL (0000ms, 0294ms total)
T32A4 1076:122 JLINK_Reset() -- CPU is running -- CPU_WriteMem(4 bytes @ 0xE000EDF0) -- CPU is running -- CPU_WriteMem(4 bytes @ 0xE000EDFC)Reset: Halt core after reset via DEMCR.VC_CORERESET. >0x35 TIF>Reset: Reset device via AIRCR.VECTRESET. -- CPU is running -- CPU_WriteMem(4 bytes @ 0xE000ED0C) -- CPU_ReadMem(4 bytes @ 0xE000EDF0) -- CPU_ReadMem(4 bytes @ 0xE000EDF0) -- CPU is running -- CPU_WriteMem(4 bytes @ 0xE000EDF0) -- CPU is running -- CPU_WriteMem(4 bytes @ 0xE000EDFC)
 -- CPU_ReadMem(4 bytes @ 0xE000EDF0) -- CPU_WriteMem(4 bytes @ 0xE0002000) -- CPU_ReadMem(4 bytes @ 0xE000EDFC) -- CPU_ReadMem(4 bytes @ 0xE0001000) (0010ms, 0304ms total)
T32A4 1076:132 JLINK_ReadReg(R15 (PC))  returns 0x00202090 (0001ms, 0305ms total)
T32A4 1076:133 JLINK_ReadReg(XPSR)  returns 0x01000000 (0000ms, 0305ms total)
T32A4 1076:133 JLINK_Halt()  returns 0x00 (0000ms, 0305ms total)
T32A4 1076:133 JLINK_ReadMemU32(0xE000EDF0, 0x0001 Items, ...) -- CPU_ReadMem(4 bytes @ 0xE000EDF0) - Data: 03 00 03 00  returns 1 (0000ms, 0305ms total)
T32A4 1076:133 JLINK_WriteU32(0xE000EDF0, 0xA05F0003) -- CPU_WriteMem(4 bytes @ 0xE000EDF0)  returns 0 (0000ms, 0305ms total)
T32A4 1076:133 JLINK_WriteU32(0xE000EDFC, 0x01000000) -- CPU_WriteMem(4 bytes @ 0xE000EDFC)  returns 0 (0000ms, 0305ms total)
T32A4 1076:133 JLINK_GetHWStatus(...)  returns 0x00 (0000ms, 0305ms total)
T32A4 1076:134 JLINK_GetNumBPUnits(Type = 0xFFFFFF00)  returns 0x08 (0000ms, 0305ms total)
T32A4 1076:134 JLINK_GetNumBPUnits(Type = 0xF0)  returns 0x2000 (0000ms, 0305ms total)
T32A4 1076:134 JLINK_GetNumWPUnits()  returns 0x04 (0000ms, 0305ms total)
T32A4 1076:134 JLINK_GetSpeed()  returns 0x1388 (0000ms, 0305ms total)
T32A4 1076:134 JLINK_ReadMemU32(0xE000E004, 0x0001 Items, ...) -- CPU_ReadMem(4 bytes @ 0xE000E004) - Data: 04 00 00 00  returns 1 (0000ms, 0305ms total)
T32A4 1076:134 JLINK_ReadMemU32(0xE000E004, 0x0001 Items, ...) -- CPU_ReadMem(4 bytes @ 0xE000E004) - Data: 04 00 00 00  returns 1 (0000ms, 0305ms total)
T32A4 1076:134 JLINK_WriteMemEx(0xE0001000, 0x001C Bytes, ..., Flags = 0x02000004) - Data: 01 00 00 00 00 00 00 00 00 00 00 00 00 00 00 00 ... -- CPU_WriteMem(28 bytes @ 0xE0001000)  returns 0x1C (0001ms, 0306ms total)
T32A4 1076:135 JLINK_ReadReg(R15 (PC))  returns 0x00202090 (0000ms, 0306ms total)
T32A4 1076:135 JLINK_ReadReg(XPSR)  returns 0x01000000 (0000ms, 0306ms total)
T32A4 1076:153 JLINK_ReadMemEx(0xE0001004, 0x0004 Bytes, ..., Flags = 0x02000000) - Data: 00 00 00 00  returns 0x04 (0000ms, 0306ms total)
T32A4 1076:219 JLINK_ReadMemEx(0xE000ED28, 0x0004 Bytes, ..., Flags = 0x02000000) -- CPU_ReadMem(4 bytes @ 0xE000ED28) - Data: 00 00 00 00  returns 0x04 (0001ms, 0307ms total)
T32A4 1076:220 JLINK_ReadMemEx(0xE000ED2C, 0x0004 Bytes, ..., Flags = 0x02000000) -- CPU_ReadMem(4 bytes @ 0xE000ED2C) - Data: 00 00 00 00  returns 0x04 (0000ms, 0307ms total)
T32A4 1076:220 JLINK_ReadMemEx(0xE000ED30, 0x0004 Bytes, ..., Flags = 0x02000000) -- CPU_ReadMem(4 bytes @ 0xE000ED30) - Data: 09 00 00 00  returns 0x04 (0000ms, 0307ms total)
T32A4 1076:220 JLINK_ReadMemEx(0xE000ED34, 0x0004 Bytes, ..., Flags = 0x02000000) -- CPU_ReadMem(4 bytes @ 0xE000ED34) - Data: 00 00 00 00  returns 0x04 (0000ms, 0307ms total)
T32A4 1076:220 JLINK_ReadMemEx(0xE000ED38, 0x0004 Bytes, ..., Flags = 0x02000000) -- CPU_ReadMem(4 bytes @ 0xE000ED38) - Data: 00 00 00 00  returns 0x04 (0001ms, 0308ms total)
T32A4 1076:221 JLINK_ReadMemEx(0xE000EFA8, 0x0004 Bytes, ..., Flags = 0x02000000) -- CPU_ReadMem(4 bytes @ 0xE000EFA8) - Data: 00 00 00 00  returns 0x04 (0000ms, 0308ms total)
T32A4 1078:273 JLINK_ReadMemEx(0x00000000, 0x003C Bytes, ..., Flags = 0x02000000) -- CPU_ReadMem(60 bytes @ 0x00000000) - Data: 08 00 00 00 00 00 00 00 00 ED 00 80 C1 A9 00 80 ...  returns 0x3C (0000ms, 0308ms total)
T32A4 1078:273 JLINK_ReadMemEx(0x00000000, 0x0002 Bytes, ..., Flags = 0x02000000) -- CPU_ReadMem(2 bytes @ 0x00000000) - Data: 08 00  returns 0x02 (0000ms, 0308ms total)
T32A4 1078:273 JLINK_ReadMemEx(0x00000002, 0x0002 Bytes, ..., Flags = 0x02000000) -- CPU_ReadMem(2 bytes @ 0x00000002) - Data: 00 00  returns 0x02 (0001ms, 0309ms total)
T32A4 1078:274 JLINK_ReadMemEx(0x00000002, 0x0002 Bytes, ..., Flags = 0x02000000) -- CPU_ReadMem(2 bytes @ 0x00000002) - Data: 00 00  returns 0x02 (0000ms, 0309ms total)
T32A4 1078:274 JLINK_ReadMemEx(0x00000004, 0x003C Bytes, ..., Flags = 0x02000000) -- CPU_ReadMem(60 bytes @ 0x00000004) - Data: 00 00 00 00 00 ED 00 80 C1 A9 00 80 C9 E9 00 80 ...  returns 0x3C (0001ms, 0310ms total)
T32A4 1078:275 JLINK_ReadMemEx(0x00000004, 0x0002 Bytes, ..., Flags = 0x02000000) -- CPU_ReadMem(2 bytes @ 0x00000004) - Data: 00 00  returns 0x02 (0000ms, 0310ms total)
T32A4 1078:275 JLINK_ReadMemEx(0x00000004, 0x003C Bytes, ..., Flags = 0x02000000) -- CPU_ReadMem(60 bytes @ 0x00000004) - Data: 00 00 00 00 00 ED 00 80 C1 A9 00 80 C9 E9 00 80 ...  returns 0x3C (0000ms, 0310ms total)
T32A4 1078:275 JLINK_ReadMemEx(0x00000004, 0x0002 Bytes, ..., Flags = 0x02000000) -- CPU_ReadMem(2 bytes @ 0x00000004) - Data: 00 00  returns 0x02 (0001ms, 0311ms total)
T32A4 1078:276 JLINK_ReadMemEx(0x00000006, 0x0002 Bytes, ..., Flags = 0x02000000) -- CPU_ReadMem(2 bytes @ 0x00000006) - Data: 00 00  returns 0x02 (0000ms, 0311ms total)
T32A4 1078:276 JLINK_ReadMemEx(0x00000006, 0x0002 Bytes, ..., Flags = 0x02000000) -- CPU_ReadMem(2 bytes @ 0x00000006) - Data: 00 00  returns 0x02 (0000ms, 0311ms total)
T32A4 1078:276 JLINK_ReadMemEx(0x00000008, 0x003C Bytes, ..., Flags = 0x02000000) -- CPU_ReadMem(60 bytes @ 0x00000008) - Data: 00 ED 00 80 C1 A9 00 80 C9 E9 00 80 E1 3F 00 80 ...  returns 0x3C (0001ms, 0312ms total)
T32A4 1078:277 JLINK_ReadMemEx(0x00000008, 0x0002 Bytes, ..., Flags = 0x02000000) -- CPU_ReadMem(2 bytes @ 0x00000008) - Data: 00 ED  returns 0x02 (0000ms, 0312ms total)
T32A4 1078:277 JLINK_ReadMemEx(0x00000008, 0x003C Bytes, ..., Flags = 0x02000000) -- CPU_ReadMem(60 bytes @ 0x00000008) - Data: 00 ED 00 80 C1 A9 00 80 C9 E9 00 80 E1 3F 00 80 ...  returns 0x3C (0000ms, 0312ms total)
T32A4 1078:277 JLINK_ReadMemEx(0x00000008, 0x0002 Bytes, ..., Flags = 0x02000000) -- CPU_ReadMem(2 bytes @ 0x00000008) - Data: 00 ED  returns 0x02 (0001ms, 0313ms total)
T32A4 1078:278 JLINK_ReadMemEx(0x0000000A, 0x0002 Bytes, ..., Flags = 0x02000000) -- CPU_ReadMem(2 bytes @ 0x0000000A) - Data: 00 80  returns 0x02 (0000ms, 0313ms total)
T32A4 1078:278 JLINK_ReadMemEx(0x0000000C, 0x003C Bytes, ..., Flags = 0x02000000) -- CPU_ReadMem(60 bytes @ 0x0000000C) - Data: C1 A9 00 80 C9 E9 00 80 E1 3F 00 80 E9 FD 01 80 ...  returns 0x3C (0000ms, 0313ms total)
T32A4 1078:278 JLINK_ReadMemEx(0x0000000C, 0x0002 Bytes, ..., Flags = 0x02000000) -- CPU_ReadMem(2 bytes @ 0x0000000C) - Data: C1 A9  returns 0x02 (0000ms, 0313ms total)
T32A4 1078:279 JLINK_ReadMemEx(0x0000000E, 0x0002 Bytes, ..., Flags = 0x02000000) -- CPU_ReadMem(2 bytes @ 0x0000000E) - Data: 00 80  returns 0x02 (0000ms, 0313ms total)
T32A4 1078:279 JLINK_ReadMemEx(0x0000000E, 0x0002 Bytes, ..., Flags = 0x02000000) -- CPU_ReadMem(2 bytes @ 0x0000000E) - Data: 00 80  returns 0x02 (0000ms, 0313ms total)
T32A4 1078:279 JLINK_ReadMemEx(0x00000010, 0x003C Bytes, ..., Flags = 0x02000000) -- CPU_ReadMem(60 bytes @ 0x00000010) - Data: C9 E9 00 80 E1 3F 00 80 E9 FD 01 80 00 00 00 00 ...  returns 0x3C (0000ms, 0313ms total)
T32A4 1078:279 JLINK_ReadMemEx(0x00000010, 0x0002 Bytes, ..., Flags = 0x02000000) -- CPU_ReadMem(2 bytes @ 0x00000010) - Data: C9 E9  returns 0x02 (0001ms, 0314ms total)
T32A4 1078:602 JLINK_ReadReg(R0)  returns 0x00000000 (0001ms, 0315ms total)
T32A4 1078:603 JLINK_ReadReg(R1)  returns 0x00000000 (0000ms, 0315ms total)
T32A4 1078:603 JLINK_ReadReg(R2)  returns 0x00000000 (0000ms, 0315ms total)
T32A4 1078:603 JLINK_ReadReg(R3)  returns 0x00000000 (0000ms, 0315ms total)
T32A4 1078:603 JLINK_ReadReg(R4)  returns 0x00000000 (0000ms, 0315ms total)
T32A4 1078:603 JLINK_ReadReg(R5)  returns 0x00000000 (0000ms, 0315ms total)
T32A4 1078:603 JLINK_ReadReg(R6)  returns 0x00000000 (0000ms, 0315ms total)
T32A4 1078:603 JLINK_ReadReg(R7)  returns 0x00000000 (0000ms, 0315ms total)
T32A4 1078:603 JLINK_ReadReg(R8)  returns 0x00000000 (0000ms, 0315ms total)
T32A4 1078:603 JLINK_ReadReg(R9)  returns 0x00000000 (0000ms, 0315ms total)
T32A4 1078:603 JLINK_ReadReg(R10)  returns 0x00000000 (0000ms, 0315ms total)
T32A4 1078:603 JLINK_ReadReg(R11)  returns 0x00000000 (0000ms, 0315ms total)
T32A4 1078:603 JLINK_ReadReg(R12)  returns 0x00000000 (0000ms, 0315ms total)
T32A4 1078:603 JLINK_ReadReg(R13 (SP))  returns 0x20201000 (0000ms, 0315ms total)
T32A4 1078:603 JLINK_ReadReg(R14)  returns 0xFFFFFFFF (0000ms, 0315ms total)
T32A4 1078:603 JLINK_ReadReg(R15 (PC))  returns 0x00202090 (0000ms, 0315ms total)
T32A4 1078:603 JLINK_ReadReg(XPSR)  returns 0x01000000 (0000ms, 0315ms total)
T32A4 1078:603 JLINK_ReadReg(MSP)  returns 0x20201000 (0000ms, 0315ms total)
T32A4 1078:603 JLINK_ReadReg(PSP)  returns 0x00000000 (0000ms, 0315ms total)
T32A4 1078:603 JLINK_ReadReg(CFBP)  returns 0x00000000 (0000ms, 0315ms total)
T32A4 1078:603 JLINK_ReadReg(FPSCR)  returns 0x00000000 (0004ms, 0319ms total)
T32A4 1078:607 JLINK_ReadReg(FPS0)  returns 0x00000000 (0000ms, 0319ms total)
T32A4 1078:607 JLINK_ReadReg(FPS1)  returns 0x00000000 (0000ms, 0319ms total)
T32A4 1078:607 JLINK_ReadReg(FPS2)  returns 0x00000000 (0000ms, 0319ms total)
T32A4 1078:607 JLINK_ReadReg(FPS3)  returns 0x00000000 (0000ms, 0319ms total)
T32A4 1078:607 JLINK_ReadReg(FPS4)  returns 0x00000000 (0000ms, 0319ms total)
T32A4 1078:607 JLINK_ReadReg(FPS5)  returns 0x00000000 (0000ms, 0319ms total)
T32A4 1078:607 JLINK_ReadReg(FPS6)  returns 0x00000000 (0000ms, 0319ms total)
T32A4 1078:607 JLINK_ReadReg(FPS7)  returns 0x00000000 (0000ms, 0319ms total)
T32A4 1078:607 JLINK_ReadReg(FPS8)  returns 0x00000000 (0000ms, 0319ms total)
T32A4 1078:607 JLINK_ReadReg(FPS9)  returns 0x00000000 (0000ms, 0319ms total)
T32A4 1078:607 JLINK_ReadReg(FPS10)  returns 0x00000000 (0000ms, 0319ms total)
T32A4 1078:607 JLINK_ReadReg(FPS11)  returns 0x00000000 (0000ms, 0319ms total)
T32A4 1078:607 JLINK_ReadReg(FPS12)  returns 0x00000000 (0000ms, 0319ms total)
T32A4 1078:607 JLINK_ReadReg(FPS13)  returns 0x00000000 (0000ms, 0319ms total)
T32A4 1078:607 JLINK_ReadReg(FPS14)  returns 0x00000000 (0000ms, 0319ms total)
T32A4 1078:607 JLINK_ReadReg(FPS15)  returns 0xFFFFFFFF (0000ms, 0319ms total)
T32A4 1078:607 JLINK_ReadReg(FPS16)  returns 0x00000000 (0000ms, 0319ms total)
T32A4 1078:607 JLINK_ReadReg(FPS17)  returns 0x00000000 (0000ms, 0319ms total)
T32A4 1078:607 JLINK_ReadReg(FPS18)  returns 0x00000000 (0000ms, 0319ms total)
T32A4 1078:607 JLINK_ReadReg(FPS19)  returns 0x00000000 (0000ms, 0319ms total)
T32A4 1078:607 JLINK_ReadReg(FPS20)  returns 0x00000000 (0000ms, 0319ms total)
T32A4 1078:607 JLINK_ReadReg(FPS21)  returns 0x00000000 (0000ms, 0319ms total)
T32A4 1078:607 JLINK_ReadReg(FPS22)  returns 0x00000000 (0000ms, 0319ms total)
T32A4 1078:607 JLINK_ReadReg(FPS23)  returns 0x00000000 (0000ms, 0319ms total)
T32A4 1078:607 JLINK_ReadReg(FPS24)  returns 0x00000000 (0000ms, 0319ms total)
T32A4 1078:607 JLINK_ReadReg(FPS25)  returns 0x00000000 (0000ms, 0319ms total)
T32A4 1078:607 JLINK_ReadReg(FPS26)  returns 0x00000000 (0000ms, 0319ms total)
T32A4 1078:607 JLINK_ReadReg(FPS27)  returns 0x00000000 (0000ms, 0319ms total)
T32A4 1078:607 JLINK_ReadReg(FPS28)  returns 0x00000000 (0000ms, 0319ms total)
T32A4 1078:607 JLINK_ReadReg(FPS29)  returns 0x00000000 (0000ms, 0319ms total)
T32A4 1078:607 JLINK_ReadReg(FPS30)  returns 0x00000000 (0000ms, 0319ms total)
T32A4 1078:607 JLINK_ReadReg(FPS31)  returns 0xFFFFFFFF (0000ms, 0319ms total)
T32A4 1078:611 JLINK_WriteMemEx(0x400FC068, 0x0004 Bytes, ..., Flags = 0x02000000) - Data: FF FF FF FF -- CPU_WriteMem(4 bytes @ 0x400FC068)  returns 0x04 (0000ms, 0319ms total)
T32A4 1078:611 JLINK_WriteMemEx(0x400FC06C, 0x0004 Bytes, ..., Flags = 0x02000000) - Data: FF FF FF FF -- CPU_WriteMem(4 bytes @ 0x400FC06C)  returns 0x04 (0001ms, 0320ms total)
T32A4 1078:612 JLINK_WriteMemEx(0x400FC070, 0x0004 Bytes, ..., Flags = 0x02000000) - Data: FF FF FF FF -- CPU_WriteMem(4 bytes @ 0x400FC070)  returns 0x04 (0000ms, 0320ms total)
T32A4 1078:612 JLINK_WriteMemEx(0x400FC074, 0x0004 Bytes, ..., Flags = 0x02000000) - Data: FF FF FF FF -- CPU_WriteMem(4 bytes @ 0x400FC074)  returns 0x04 (0000ms, 0320ms total)
T32A4 1078:613 JLINK_WriteMemEx(0x400FC078, 0x0004 Bytes, ..., Flags = 0x02000000) - Data: FF FF FF FF -- CPU_WriteMem(4 bytes @ 0x400FC078)  returns 0x04 (0000ms, 0321ms total)
T32A4 1078:613 JLINK_WriteMemEx(0x400FC07C, 0x0004 Bytes, ..., Flags = 0x02000000) - Data: FF FF FF FF -- CPU_WriteMem(4 bytes @ 0x400FC07C)  returns 0x04 (0000ms, 0321ms total)
T32A4 1078:613 JLINK_WriteMemEx(0x400FC080, 0x0004 Bytes, ..., Flags = 0x02000000) - Data: FF FF FF FF -- CPU_WriteMem(4 bytes @ 0x400FC080)  returns 0x04 (0001ms, 0322ms total)
T32A4 1078:614 JLINK_WriteMemEx(0x400D8030, 0x0004 Bytes, ..., Flags = 0x02000000) - Data: 01 20 00 00 -- CPU_WriteMem(4 bytes @ 0x400D8030)  returns 0x04 (0000ms, 0322ms total)
T32A4 1078:614 JLINK_WriteMemEx(0x400D8100, 0x0004 Bytes, ..., Flags = 0x02000000) - Data: 00 00 1D 00 -- CPU_WriteMem(4 bytes @ 0x400D8100)  returns 0x04 (0000ms, 0322ms total)
T32A4 1078:614 JLINK_WriteMemEx(0x400FC014, 0x0004 Bytes, ..., Flags = 0x02000000) - Data: 40 0D 01 00 -- CPU_WriteMem(4 bytes @ 0x400FC014)  returns 0x04 (0001ms, 0323ms total)
T32A4 1078:615 JLINK_WriteMemEx(0x401F8014, 0x0004 Bytes, ..., Flags = 0x02000000) - Data: 00 00 00 00 -- CPU_WriteMem(4 bytes @ 0x401F8014)  returns 0x04 (0000ms, 0323ms total)
T32A4 1078:615 JLINK_WriteMemEx(0x401F8018, 0x0004 Bytes, ..., Flags = 0x02000000) - Data: 00 00 00 00 -- CPU_WriteMem(4 bytes @ 0x401F8018)  returns 0x04 (0000ms, 0323ms total)
T32A4 1078:615 JLINK_WriteMemEx(0x401F801C, 0x0004 Bytes, ..., Flags = 0x02000000) - Data: 00 00 00 00 -- CPU_WriteMem(4 bytes @ 0x401F801C)  returns 0x04 (0001ms, 0324ms total)
T32A4 1078:616 JLINK_WriteMemEx(0x401F8020, 0x0004 Bytes, ..., Flags = 0x02000000) - Data: 00 00 00 00 -- CPU_WriteMem(4 bytes @ 0x401F8020)  returns 0x04 (0000ms, 0324ms total)
T32A4 1078:616 JLINK_WriteMemEx(0x401F8024, 0x0004 Bytes, ..., Flags = 0x02000000) - Data: 00 00 00 00 -- CPU_WriteMem(4 bytes @ 0x401F8024)  returns 0x04 (0000ms, 0324ms total)
T32A4 1078:616 JLINK_WriteMemEx(0x401F8028, 0x0004 Bytes, ..., Flags = 0x02000000) - Data: 00 00 00 00 -- CPU_WriteMem(4 bytes @ 0x401F8028)  returns 0x04 (0001ms, 0325ms total)
T32A4 1078:617 JLINK_WriteMemEx(0x401F802C, 0x0004 Bytes, ..., Flags = 0x02000000) - Data: 00 00 00 00 -- CPU_WriteMem(4 bytes @ 0x401F802C)  returns 0x04 (0000ms, 0325ms total)
T32A4 1078:617 JLINK_WriteMemEx(0x401F8030, 0x0004 Bytes, ..., Flags = 0x02000000) - Data: 00 00 00 00 -- CPU_WriteMem(4 bytes @ 0x401F8030)  returns 0x04 (0000ms, 0325ms total)
T32A4 1078:617 JLINK_WriteMemEx(0x401F8034, 0x0004 Bytes, ..., Flags = 0x02000000) - Data: 00 00 00 00 -- CPU_WriteMem(4 bytes @ 0x401F8034)  returns 0x04 (0000ms, 0325ms total)
T32A4 1078:617 JLINK_WriteMemEx(0x401F8038, 0x0004 Bytes, ..., Flags = 0x02000000) - Data: 00 00 00 00 -- CPU_WriteMem(4 bytes @ 0x401F8038)  returns 0x04 (0001ms, 0326ms total)
T32A4 1078:618 JLINK_WriteMemEx(0x401F803C, 0x0004 Bytes, ..., Flags = 0x02000000) - Data: 00 00 00 00 -- CPU_WriteMem(4 bytes @ 0x401F803C)  returns 0x04 (0000ms, 0326ms total)
T32A4 1078:618 JLINK_WriteMemEx(0x401F8040, 0x0004 Bytes, ..., Flags = 0x02000000) - Data: 00 00 00 00 -- CPU_WriteMem(4 bytes @ 0x401F8040)  returns 0x04 (0000ms, 0326ms total)
T32A4 1078:618 JLINK_WriteMemEx(0x401F8044, 0x0004 Bytes, ..., Flags = 0x02000000) - Data: 00 00 00 00 -- CPU_WriteMem(4 bytes @ 0x401F8044)  returns 0x04 (0001ms, 0327ms total)
T32A4 1078:619 JLINK_WriteMemEx(0x401F8048, 0x0004 Bytes, ..., Flags = 0x02000000) - Data: 00 00 00 00 -- CPU_WriteMem(4 bytes @ 0x401F8048)  returns 0x04 (0000ms, 0327ms total)
T32A4 1078:619 JLINK_WriteMemEx(0x401F804C, 0x0004 Bytes, ..., Flags = 0x02000000) - Data: 00 00 00 00 -- CPU_WriteMem(4 bytes @ 0x401F804C)  returns 0x04 (0000ms, 0327ms total)
T32A4 1078:619 JLINK_WriteMemEx(0x401F8050, 0x0004 Bytes, ..., Flags = 0x02000000) - Data: 00 00 00 00 -- CPU_WriteMem(4 bytes @ 0x401F8050)  returns 0x04 (0000ms, 0327ms total)
T32A4 1078:619 JLINK_WriteMemEx(0x401F8054, 0x0004 Bytes, ..., Flags = 0x02000000) - Data: 00 00 00 00 -- CPU_WriteMem(4 bytes @ 0x401F8054)  returns 0x04 (0001ms, 0328ms total)
T32A4 1078:620 JLINK_WriteMemEx(0x401F8058, 0x0004 Bytes, ..., Flags = 0x02000000) - Data: 00 00 00 00 -- CPU_WriteMem(4 bytes @ 0x401F8058)  returns 0x04 (0000ms, 0328ms total)
T32A4 1078:620 JLINK_WriteMemEx(0x401F805C, 0x0004 Bytes, ..., Flags = 0x02000000) - Data: 00 00 00 00 -- CPU_WriteMem(4 bytes @ 0x401F805C)  returns 0x04 (0001ms, 0329ms total)
T32A4 1078:621 JLINK_WriteMemEx(0x401F8060, 0x0004 Bytes, ..., Flags = 0x02000000) - Data: 00 00 00 00 -- CPU_WriteMem(4 bytes @ 0x401F8060)  returns 0x04 (0000ms, 0329ms total)
T32A4 1078:621 JLINK_WriteMemEx(0x401F8064, 0x0004 Bytes, ..., Flags = 0x02000000) - Data: 00 00 00 00 -- CPU_WriteMem(4 bytes @ 0x401F8064)  returns 0x04 (0000ms, 0329ms total)
T32A4 1078:621 JLINK_WriteMemEx(0x401F8068, 0x0004 Bytes, ..., Flags = 0x02000000) - Data: 00 00 00 00 -- CPU_WriteMem(4 bytes @ 0x401F8068)  returns 0x04 (0000ms, 0329ms total)
T32A4 1078:621 JLINK_WriteMemEx(0x401F806C, 0x0004 Bytes, ..., Flags = 0x02000000) - Data: 00 00 00 00 -- CPU_WriteMem(4 bytes @ 0x401F806C)  returns 0x04 (0000ms, 0329ms total)
T32A4 1078:621 JLINK_WriteMemEx(0x401F8070, 0x0004 Bytes, ..., Flags = 0x02000000) - Data: 00 00 00 00 -- CPU_WriteMem(4 bytes @ 0x401F8070)  returns 0x04 (0001ms, 0330ms total)
T32A4 1078:622 JLINK_WriteMemEx(0x401F8074, 0x0004 Bytes, ..., Flags = 0x02000000) - Data: 00 00 00 00 -- CPU_WriteMem(4 bytes @ 0x401F8074)  returns 0x04 (0000ms, 0330ms total)
T32A4 1078:622 JLINK_WriteMemEx(0x401F8078, 0x0004 Bytes, ..., Flags = 0x02000000) - Data: 00 00 00 00 -- CPU_WriteMem(4 bytes @ 0x401F8078)  returns 0x04 (0000ms, 0330ms total)
T32A4 1078:622 JLINK_WriteMemEx(0x401F807C, 0x0004 Bytes, ..., Flags = 0x02000000) - Data: 00 00 00 00 -- CPU_WriteMem(4 bytes @ 0x401F807C)  returns 0x04 (0000ms, 0330ms total)
T32A4 1078:622 JLINK_WriteMemEx(0x401F8080, 0x0004 Bytes, ..., Flags = 0x02000000) - Data: 00 00 00 00 -- CPU_WriteMem(4 bytes @ 0x401F8080)  returns 0x04 (0001ms, 0331ms total)
T32A4 1078:623 JLINK_WriteMemEx(0x401F8084, 0x0004 Bytes, ..., Flags = 0x02000000) - Data: 00 00 00 00 -- CPU_WriteMem(4 bytes @ 0x401F8084)  returns 0x04 (0001ms, 0332ms total)
T32A4 1078:624 JLINK_WriteMemEx(0x401F8088, 0x0004 Bytes, ..., Flags = 0x02000000) - Data: 00 00 00 00 -- CPU_WriteMem(4 bytes @ 0x401F8088)  returns 0x04 (0000ms, 0332ms total)
T32A4 1078:624 JLINK_WriteMemEx(0x401F808C, 0x0004 Bytes, ..., Flags = 0x02000000) - Data: 00 00 00 00 -- CPU_WriteMem(4 bytes @ 0x401F808C)  returns 0x04 (0001ms, 0333ms total)
T32A4 1078:625 JLINK_WriteMemEx(0x401F8090, 0x0004 Bytes, ..., Flags = 0x02000000) - Data: 00 00 00 00 -- CPU_WriteMem(4 bytes @ 0x401F8090)  returns 0x04 (0000ms, 0333ms total)
T32A4 1078:625 JLINK_WriteMemEx(0x401F8094, 0x0004 Bytes, ..., Flags = 0x02000000) - Data: 00 00 00 00 -- CPU_WriteMem(4 bytes @ 0x401F8094)  returns 0x04 (0000ms, 0333ms total)
T32A4 1078:625 JLINK_WriteMemEx(0x401F8098, 0x0004 Bytes, ..., Flags = 0x02000000) - Data: 00 00 00 00 -- CPU_WriteMem(4 bytes @ 0x401F8098)  returns 0x04 (0001ms, 0334ms total)
T32A4 1078:626 JLINK_WriteMemEx(0x401F809C, 0x0004 Bytes, ..., Flags = 0x02000000) - Data: 00 00 00 00 -- CPU_WriteMem(4 bytes @ 0x401F809C)  returns 0x04 (0000ms, 0334ms total)
T32A4 1078:626 JLINK_WriteMemEx(0x401F80A0, 0x0004 Bytes, ..., Flags = 0x02000000) - Data: 00 00 00 00 -- CPU_WriteMem(4 bytes @ 0x401F80A0)  returns 0x04 (0001ms, 0335ms total)
T32A4 1078:627 JLINK_WriteMemEx(0x401F80A4, 0x0004 Bytes, ..., Flags = 0x02000000) - Data: 00 00 00 00 -- CPU_WriteMem(4 bytes @ 0x401F80A4)  returns 0x04 (0000ms, 0335ms total)
T32A4 1078:627 JLINK_WriteMemEx(0x401F80A8, 0x0004 Bytes, ..., Flags = 0x02000000) - Data: 00 00 00 00 -- CPU_WriteMem(4 bytes @ 0x401F80A8)  returns 0x04 (0000ms, 0335ms total)
T32A4 1078:627 JLINK_WriteMemEx(0x401F80AC, 0x0004 Bytes, ..., Flags = 0x02000000) - Data: 00 00 00 00 -- CPU_WriteMem(4 bytes @ 0x401F80AC)  returns 0x04 (0001ms, 0336ms total)
T32A4 1078:628 JLINK_WriteMemEx(0x401F80B0, 0x0004 Bytes, ..., Flags = 0x02000000) - Data: 10 00 00 00 -- CPU_WriteMem(4 bytes @ 0x401F80B0)  returns 0x04 (0000ms, 0336ms total)
T32A4 1078:628 JLINK_WriteMemEx(0x401F80B4, 0x0004 Bytes, ..., Flags = 0x02000000) - Data: 00 00 00 00 -- CPU_WriteMem(4 bytes @ 0x401F80B4)  returns 0x04 (0000ms, 0336ms total)
T32A4 1078:628 JLINK_WriteMemEx(0x401F80B8, 0x0004 Bytes, ..., Flags = 0x02000000) - Data: 00 00 00 00 -- CPU_WriteMem(4 bytes @ 0x401F80B8)  returns 0x04 (0000ms, 0336ms total)
T32A4 1078:628 JLINK_WriteMemEx(0x401F8204, 0x0004 Bytes, ..., Flags = 0x02000000) - Data: F9 10 01 00 -- CPU_WriteMem(4 bytes @ 0x401F8204)  returns 0x04 (0000ms, 0336ms total)
T32A4 1078:628 JLINK_WriteMemEx(0x401F8208, 0x0004 Bytes, ..., Flags = 0x02000000) - Data: F9 10 01 00 -- CPU_WriteMem(4 bytes @ 0x401F8208)  returns 0x04 (0001ms, 0337ms total)
T32A4 1078:629 JLINK_WriteMemEx(0x401F820C, 0x0004 Bytes, ..., Flags = 0x02000000) - Data: F9 10 01 00 -- CPU_WriteMem(4 bytes @ 0x401F820C)  returns 0x04 (0000ms, 0337ms total)
T32A4 1078:629 JLINK_WriteMemEx(0x401F8210, 0x0004 Bytes, ..., Flags = 0x02000000) - Data: F9 10 01 00 -- CPU_WriteMem(4 bytes @ 0x401F8210)  returns 0x04 (0001ms, 0338ms total)
T32A4 1078:630 JLINK_WriteMemEx(0x401F8214, 0x0004 Bytes, ..., Flags = 0x02000000) - Data: F9 10 01 00 -- CPU_WriteMem(4 bytes @ 0x401F8214)  returns 0x04 (0000ms, 0338ms total)
T32A4 1078:630 JLINK_WriteMemEx(0x401F8218, 0x0004 Bytes, ..., Flags = 0x02000000) - Data: F9 10 01 00 -- CPU_WriteMem(4 bytes @ 0x401F8218)  returns 0x04 (0000ms, 0338ms total)
T32A4 1078:630 JLINK_WriteMemEx(0x401F821C, 0x0004 Bytes, ..., Flags = 0x02000000) - Data: F9 10 01 00 -- CPU_WriteMem(4 bytes @ 0x401F821C)  returns 0x04 (0001ms, 0339ms total)
T32A4 1078:631 JLINK_WriteMemEx(0x401F8220, 0x0004 Bytes, ..., Flags = 0x02000000) - Data: F9 10 01 00 -- CPU_WriteMem(4 bytes @ 0x401F8220)  returns 0x04 (0000ms, 0339ms total)
T32A4 1078:631 JLINK_WriteMemEx(0x401F8224, 0x0004 Bytes, ..., Flags = 0x02000000) - Data: F9 10 01 00 -- CPU_WriteMem(4 bytes @ 0x401F8224)  returns 0x04 (0001ms, 0340ms total)
T32A4 1078:632 JLINK_WriteMemEx(0x401F8228, 0x0004 Bytes, ..., Flags = 0x02000000) - Data: F9 10 01 00 -- CPU_WriteMem(4 bytes @ 0x401F8228)  returns 0x04 (0000ms, 0340ms total)
T32A4 1078:632 JLINK_WriteMemEx(0x401F822C, 0x0004 Bytes, ..., Flags = 0x02000000) - Data: F9 10 01 00 -- CPU_WriteMem(4 bytes @ 0x401F822C)  returns 0x04 (0000ms, 0340ms total)
T32A4 1078:632 JLINK_WriteMemEx(0x401F8230, 0x0004 Bytes, ..., Flags = 0x02000000) - Data: F9 10 01 00 -- CPU_WriteMem(4 bytes @ 0x401F8230)  returns 0x04 (0001ms, 0341ms total)
T32A4 1078:633 JLINK_WriteMemEx(0x401F8234, 0x0004 Bytes, ..., Flags = 0x02000000) - Data: F9 10 01 00 -- CPU_WriteMem(4 bytes @ 0x401F8234)  returns 0x04 (0000ms, 0341ms total)
T32A4 1078:633 JLINK_WriteMemEx(0x401F8238, 0x0004 Bytes, ..., Flags = 0x02000000) - Data: F9 10 01 00 -- CPU_WriteMem(4 bytes @ 0x401F8238)  returns 0x04 (0000ms, 0341ms total)
T32A4 1078:633 JLINK_WriteMemEx(0x401F823C, 0x0004 Bytes, ..., Flags = 0x02000000) - Data: F9 10 01 00 -- CPU_WriteMem(4 bytes @ 0x401F823C)  returns 0x04 (0001ms, 0342ms total)
T32A4 1078:634 JLINK_WriteMemEx(0x401F8240, 0x0004 Bytes, ..., Flags = 0x02000000) - Data: F9 10 01 00 -- CPU_WriteMem(4 bytes @ 0x401F8240)  returns 0x04 (0000ms, 0342ms total)
T32A4 1078:634 JLINK_WriteMemEx(0x401F8244, 0x0004 Bytes, ..., Flags = 0x02000000) - Data: F9 10 01 00 -- CPU_WriteMem(4 bytes @ 0x401F8244)  returns 0x04 (0000ms, 0342ms total)
T32A4 1078:634 JLINK_WriteMemEx(0x401F8248, 0x0004 Bytes, ..., Flags = 0x02000000) - Data: F9 10 01 00 -- CPU_WriteMem(4 bytes @ 0x401F8248)  returns 0x04 (0000ms, 0342ms total)
T32A4 1078:634 JLINK_WriteMemEx(0x401F824C, 0x0004 Bytes, ..., Flags = 0x02000000) - Data: F9 10 01 00 -- CPU_WriteMem(4 bytes @ 0x401F824C)  returns 0x04 (0001ms, 0343ms total)
T32A4 1078:635 JLINK_WriteMemEx(0x401F8250, 0x0004 Bytes, ..., Flags = 0x02000000) - Data: F9 10 01 00 -- CPU_WriteMem(4 bytes @ 0x401F8250)  returns 0x04 (0000ms, 0343ms total)
T32A4 1078:635 JLINK_WriteMemEx(0x401F8254, 0x0004 Bytes, ..., Flags = 0x02000000) - Data: F9 10 01 00 -- CPU_WriteMem(4 bytes @ 0x401F8254)  returns 0x04 (0000ms, 0343ms total)
T32A4 1078:635 JLINK_WriteMemEx(0x401F8258, 0x0004 Bytes, ..., Flags = 0x02000000) - Data: F9 10 01 00 -- CPU_WriteMem(4 bytes @ 0x401F8258)  returns 0x04 (0000ms, 0343ms total)
T32A4 1078:635 JLINK_WriteMemEx(0x401F825C, 0x0004 Bytes, ..., Flags = 0x02000000) - Data: F9 10 01 00 -- CPU_WriteMem(4 bytes @ 0x401F825C)  returns 0x04 (0001ms, 0344ms total)
T32A4 1078:636 JLINK_WriteMemEx(0x401F8260, 0x0004 Bytes, ..., Flags = 0x02000000) - Data: F9 10 01 00 -- CPU_WriteMem(4 bytes @ 0x401F8260)  returns 0x04 (0000ms, 0344ms total)
T32A4 1078:636 JLINK_WriteMemEx(0x401F8264, 0x0004 Bytes, ..., Flags = 0x02000000) - Data: F9 10 01 00 -- CPU_WriteMem(4 bytes @ 0x401F8264)  returns 0x04 (0000ms, 0344ms total)
T32A4 1078:636 JLINK_WriteMemEx(0x401F8268, 0x0004 Bytes, ..., Flags = 0x02000000) - Data: F9 10 01 00 -- CPU_WriteMem(4 bytes @ 0x401F8268)  returns 0x04 (0000ms, 0344ms total)
T32A4 1078:636 JLINK_WriteMemEx(0x401F826C, 0x0004 Bytes, ..., Flags = 0x02000000) - Data: F9 10 01 00 -- CPU_WriteMem(4 bytes @ 0x401F826C)  returns 0x04 (0001ms, 0345ms total)
T32A4 1078:637 JLINK_WriteMemEx(0x401F8270, 0x0004 Bytes, ..., Flags = 0x02000000) - Data: F9 10 01 00 -- CPU_WriteMem(4 bytes @ 0x401F8270)  returns 0x04 (0000ms, 0345ms total)
T32A4 1078:637 JLINK_WriteMemEx(0x401F8274, 0x0004 Bytes, ..., Flags = 0x02000000) - Data: F9 10 01 00 -- CPU_WriteMem(4 bytes @ 0x401F8274)  returns 0x04 (0000ms, 0345ms total)
T32A4 1078:637 JLINK_WriteMemEx(0x401F8278, 0x0004 Bytes, ..., Flags = 0x02000000) - Data: F9 10 01 00 -- CPU_WriteMem(4 bytes @ 0x401F8278)  returns 0x04 (0000ms, 0345ms total)
T32A4 1078:637 JLINK_WriteMemEx(0x401F827C, 0x0004 Bytes, ..., Flags = 0x02000000) - Data: F9 10 01 00 -- CPU_WriteMem(4 bytes @ 0x401F827C)  returns 0x04 (0001ms, 0346ms total)
T32A4 1078:638 JLINK_WriteMemEx(0x401F8280, 0x0004 Bytes, ..., Flags = 0x02000000) - Data: F9 10 01 00 -- CPU_WriteMem(4 bytes @ 0x401F8280)  returns 0x04 (0000ms, 0346ms total)
T32A4 1078:638 JLINK_WriteMemEx(0x401F8284, 0x0004 Bytes, ..., Flags = 0x02000000) - Data: F9 10 01 00 -- CPU_WriteMem(4 bytes @ 0x401F8284)  returns 0x04 (0000ms, 0346ms total)
T32A4 1078:638 JLINK_WriteMemEx(0x401F8288, 0x0004 Bytes, ..., Flags = 0x02000000) - Data: F9 10 01 00 -- CPU_WriteMem(4 bytes @ 0x401F8288)  returns 0x04 (0000ms, 0346ms total)
T32A4 1078:638 JLINK_WriteMemEx(0x401F828C, 0x0004 Bytes, ..., Flags = 0x02000000) - Data: F9 10 01 00 -- CPU_WriteMem(4 bytes @ 0x401F828C)  returns 0x04 (0001ms, 0347ms total)
T32A4 1078:639 JLINK_WriteMemEx(0x401F8290, 0x0004 Bytes, ..., Flags = 0x02000000) - Data: F9 10 01 00 -- CPU_WriteMem(4 bytes @ 0x401F8290)  returns 0x04 (0000ms, 0347ms total)
T32A4 1078:639 JLINK_WriteMemEx(0x401F8294, 0x0004 Bytes, ..., Flags = 0x02000000) - Data: F9 10 01 00 -- CPU_WriteMem(4 bytes @ 0x401F8294)  returns 0x04 (0000ms, 0347ms total)
T32A4 1078:639 JLINK_WriteMemEx(0x401F8298, 0x0004 Bytes, ..., Flags = 0x02000000) - Data: F9 10 01 00 -- CPU_WriteMem(4 bytes @ 0x401F8298)  returns 0x04 (0000ms, 0347ms total)
T32A4 1078:639 JLINK_WriteMemEx(0x401F829C, 0x0004 Bytes, ..., Flags = 0x02000000) - Data: F9 10 01 00 -- CPU_WriteMem(4 bytes @ 0x401F829C)  returns 0x04 (0001ms, 0348ms total)
T32A4 1078:640 JLINK_WriteMemEx(0x401F82A0, 0x0004 Bytes, ..., Flags = 0x02000000) - Data: F9 10 01 00 -- CPU_WriteMem(4 bytes @ 0x401F82A0)  returns 0x04 (0000ms, 0348ms total)
T32A4 1078:640 JLINK_WriteMemEx(0x401F82A4, 0x0004 Bytes, ..., Flags = 0x02000000) - Data: F9 10 01 00 -- CPU_WriteMem(4 bytes @ 0x401F82A4)  returns 0x04 (0000ms, 0348ms total)
T32A4 1078:640 JLINK_WriteMemEx(0x401F82A8, 0x0004 Bytes, ..., Flags = 0x02000000) - Data: F9 10 01 00 -- CPU_WriteMem(4 bytes @ 0x401F82A8)  returns 0x04 (0001ms, 0349ms total)
T32A4 1078:641 JLINK_WriteMemEx(0x402F0000, 0x0004 Bytes, ..., Flags = 0x02000000) - Data: 04 00 00 10 -- CPU_WriteMem(4 bytes @ 0x402F0000)  returns 0x04 (0000ms, 0349ms total)
T32A4 1078:641 JLINK_WriteMemEx(0x402F0008, 0x0004 Bytes, ..., Flags = 0x02000000) - Data: 24 05 03 00 -- CPU_WriteMem(4 bytes @ 0x402F0008)  returns 0x04 (0000ms, 0349ms total)
T32A4 1078:641 JLINK_WriteMemEx(0x402F000C, 0x0004 Bytes, ..., Flags = 0x02000000) - Data: 24 05 03 06 -- CPU_WriteMem(4 bytes @ 0x402F000C)  returns 0x04 (0000ms, 0349ms total)
T32A4 1078:641 JLINK_WriteMemEx(0x402F0010, 0x0004 Bytes, ..., Flags = 0x02000000) - Data: 1B 00 00 80 -- CPU_WriteMem(4 bytes @ 0x402F0010)  returns 0x04 (0001ms, 0350ms total)
T32A4 1078:642 JLINK_WriteMemEx(0x402F0014, 0x0004 Bytes, ..., Flags = 0x02000000) - Data: 1B 00 00 82 -- CPU_WriteMem(4 bytes @ 0x402F0014)  returns 0x04 (0000ms, 0350ms total)
T32A4 1078:642 JLINK_WriteMemEx(0x402F0018, 0x0004 Bytes, ..., Flags = 0x02000000) - Data: 1B 00 00 84 -- CPU_WriteMem(4 bytes @ 0x402F0018)  returns 0x04 (0000ms, 0350ms total)
T32A4 1078:642 JLINK_WriteMemEx(0x402F001C, 0x0004 Bytes, ..., Flags = 0x02000000) - Data: 1B 00 00 86 -- CPU_WriteMem(4 bytes @ 0x402F001C)  returns 0x04 (0000ms, 0350ms total)
T32A4 1078:642 JLINK_WriteMemEx(0x402F0020, 0x0004 Bytes, ..., Flags = 0x02000000) - Data: 21 00 00 90 -- CPU_WriteMem(4 bytes @ 0x402F0020)  returns 0x04 (0001ms, 0351ms total)
T32A4 1078:643 JLINK_WriteMemEx(0x402F0024, 0x0004 Bytes, ..., Flags = 0x02000000) - Data: 19 00 00 A0 -- CPU_WriteMem(4 bytes @ 0x402F0024)  returns 0x04 (0000ms, 0351ms total)
T32A4 1078:643 JLINK_WriteMemEx(0x402F0028, 0x0004 Bytes, ..., Flags = 0x02000000) - Data: 17 00 00 A8 -- CPU_WriteMem(4 bytes @ 0x402F0028)  returns 0x04 (0000ms, 0351ms total)
T32A4 1078:643 JLINK_WriteMemEx(0x402F002C, 0x0004 Bytes, ..., Flags = 0x02000000) - Data: 1B 00 00 A9 -- CPU_WriteMem(4 bytes @ 0x402F002C)  returns 0x04 (0000ms, 0351ms total)
T32A4 1078:643 JLINK_WriteMemEx(0x402F0030, 0x0004 Bytes, ..., Flags = 0x02000000) - Data: 21 00 00 00 -- CPU_WriteMem(4 bytes @ 0x402F0030)  returns 0x04 (0001ms, 0352ms total)
T32A4 1078:644 JLINK_WriteMemEx(0x402F0004, 0x0004 Bytes, ..., Flags = 0x02000000) - Data: A8 79 00 00 -- CPU_WriteMem(4 bytes @ 0x402F0004)  returns 0x04 (0000ms, 0352ms total)
T32A4 1078:644 JLINK_WriteMemEx(0x402F0040, 0x0004 Bytes, ..., Flags = 0x02000000) - Data: 31 0F 00 00 -- CPU_WriteMem(4 bytes @ 0x402F0040)  returns 0x04 (0000ms, 0352ms total)
T32A4 1078:644 JLINK_WriteMemEx(0x402F0044, 0x0004 Bytes, ..., Flags = 0x02000000) - Data: 22 29 65 00 -- CPU_WriteMem(4 bytes @ 0x402F0044)  returns 0x04 (0000ms, 0352ms total)
T32A4 1078:644 JLINK_WriteMemEx(0x402F0048, 0x0004 Bytes, ..., Flags = 0x02000000) - Data: 20 09 01 00 -- CPU_WriteMem(4 bytes @ 0x402F0048)  returns 0x04 (0001ms, 0353ms total)
T32A4 1078:645 JLINK_WriteMemEx(0x402F004C, 0x0004 Bytes, ..., Flags = 0x02000000) - Data: 08 0A 21 50 -- CPU_WriteMem(4 bytes @ 0x402F004C)  returns 0x04 (0000ms, 0353ms total)
T32A4 1078:645 JLINK_WriteMemEx(0x402F0080, 0x0004 Bytes, ..., Flags = 0x02000000) - Data: 21 00 00 00 -- CPU_WriteMem(4 bytes @ 0x402F0080)  returns 0x04 (0000ms, 0353ms total)
T32A4 1078:645 JLINK_WriteMemEx(0x402F0084, 0x0004 Bytes, ..., Flags = 0x02000000) - Data: 88 88 88 00 -- CPU_WriteMem(4 bytes @ 0x402F0084)  returns 0x04 (0000ms, 0353ms total)
T32A4 1078:645 JLINK_WriteMemEx(0x402F0094, 0x0004 Bytes, ..., Flags = 0x02000000) - Data: 02 00 00 00 -- CPU_WriteMem(4 bytes @ 0x402F0094)  returns 0x04 (0001ms, 0354ms total)
T32A4 1078:646 JLINK_WriteMemEx(0x402F0098, 0x0004 Bytes, ..., Flags = 0x02000000) - Data: 00 00 00 00 -- CPU_WriteMem(4 bytes @ 0x402F0098)  returns 0x04 (0000ms, 0354ms total)
T32A4 1078:646 JLINK_WriteMemEx(0x402F0090, 0x0004 Bytes, ..., Flags = 0x02000000) - Data: 00 00 00 80 -- CPU_WriteMem(4 bytes @ 0x402F0090)  returns 0x04 (0000ms, 0354ms total)
T32A4 1078:646 JLINK_WriteMemEx(0x402F009C, 0x0004 Bytes, ..., Flags = 0x02000000) - Data: 0F 00 5A A5 -- CPU_WriteMem(4 bytes @ 0x402F009C)  returns 0x04 (0000ms, 0354ms total)
T32A4 1078:646 JLINK_ReadMemEx(0x402F003C, 0x0004 Bytes, ..., Flags = 0x02000000) -- CPU_ReadMem(4 bytes @ 0x402F003C) - Data: 01 00 00 00  returns 0x04 (0001ms, 0355ms total)
T32A4 1078:647 JLINK_WriteMemEx(0x402F0090, 0x0004 Bytes, ..., Flags = 0x02000000) - Data: 00 00 00 80 -- CPU_WriteMem(4 bytes @ 0x402F0090)  returns 0x04 (0000ms, 0355ms total)
T32A4 1078:647 JLINK_WriteMemEx(0x402F009C, 0x0004 Bytes, ..., Flags = 0x02000000) - Data: 0C 00 5A A5 -- CPU_WriteMem(4 bytes @ 0x402F009C)  returns 0x04 (0000ms, 0355ms total)
T32A4 1078:647 JLINK_ReadMemEx(0x402F003C, 0x0004 Bytes, ..., Flags = 0x02000000) -- CPU_ReadMem(4 bytes @ 0x402F003C) - Data: 01 00 00 00  returns 0x04 (0000ms, 0355ms total)
T32A4 1078:670 JLINK_WriteMemEx(0x402F0090, 0x0004 Bytes, ..., Flags = 0x02000000) - Data: 00 00 00 80 -- CPU_WriteMem(4 bytes @ 0x402F0090)  returns 0x04 (0001ms, 0356ms total)
T32A4 1078:671 JLINK_WriteMemEx(0x402F009C, 0x0004 Bytes, ..., Flags = 0x02000000) - Data: 0C 00 5A A5 -- CPU_WriteMem(4 bytes @ 0x402F009C)  returns 0x04 (0000ms, 0356ms total)
T32A4 1078:671 JLINK_ReadMemEx(0x402F003C, 0x0004 Bytes, ..., Flags = 0x02000000) -- CPU_ReadMem(4 bytes @ 0x402F003C) - Data: 01 00 00 00  returns 0x04 (0000ms, 0356ms total)
T32A4 1078:671 JLINK_WriteMemEx(0x402F00A0, 0x0004 Bytes, ..., Flags = 0x02000000) - Data: 33 00 00 00 -- CPU_WriteMem(4 bytes @ 0x402F00A0)  returns 0x04 (0001ms, 0357ms total)
T32A4 1078:672 JLINK_WriteMemEx(0x402F0090, 0x0004 Bytes, ..., Flags = 0x02000000) - Data: 00 00 00 80 -- CPU_WriteMem(4 bytes @ 0x402F0090)  returns 0x04 (0000ms, 0357ms total)
T32A4 1078:672 JLINK_WriteMemEx(0x402F009C, 0x0004 Bytes, ..., Flags = 0x02000000) - Data: 0A 00 5A A5 -- CPU_WriteMem(4 bytes @ 0x402F009C)  returns 0x04 (0002ms, 0359ms total)
T32A4 1078:674 JLINK_ReadMemEx(0x402F003C, 0x0004 Bytes, ..., Flags = 0x02000000) -- CPU_ReadMem(4 bytes @ 0x402F003C) - Data: 01 00 00 00  returns 0x04 (0000ms, 0359ms total)
T32A4 1078:674 JLINK_WriteMemEx(0x402F004C, 0x0004 Bytes, ..., Flags = 0x02000000) - Data: 09 0A 21 50 -- CPU_WriteMem(4 bytes @ 0x402F004C)  returns 0x04 (0000ms, 0359ms total)
T32A4 1079:698 JLINK_WriteMemEx(0x80000000, 0x0200 Bytes, ..., Flags = 0x02000000) - Data: 46 43 46 42 00 04 01 56 00 00 00 00 01 03 03 00 ... -- CPU_WriteMem(512 bytes @ 0x80000000)  returns 0x200 (0002ms, 0361ms total)
T32A4 1079:700 JLINK_WriteMemEx(0x80001000, 0x0460 Bytes, ..., Flags = 0x02000000) - Data: D1 00 20 41 00 20 00 60 00 00 00 00 30 10 00 80 ... -- CPU_WriteMem(1120 bytes @ 0x80001000)  returns 0x460 (0004ms, 0365ms total)
T32A4 1079:705 JLINK_WriteMemEx(0x80002000, 0x1000 Bytes, ..., Flags = 0x02000000) - Data: 00 50 00 00 DF 25 00 80 D9 E6 00 80 C9 A9 00 80 ... -- CPU_WriteMem(4096 bytes @ 0x80002000)  returns 0x1000 (0012ms, 0377ms total)
T32A4 1079:718 JLINK_WriteMemEx(0x80003000, 0x1000 Bytes, ..., Flags = 0x02000000) - Data: 00 00 03 21 00 91 02 F0 8F FB 47 F2 18 20 C8 F2 ... -- CPU_WriteMem(4096 bytes @ 0x80003000)  returns 0x1000 (0011ms, 0388ms total)
T32A4 1079:730 JLINK_WriteMemEx(0x80004000, 0x1000 Bytes, ..., Flags = 0x02000000) - Data: 80 B5 82 B0 4F F2 D4 40 C8 F2 50 00 00 68 4F F2 ... -- CPU_WriteMem(4096 bytes @ 0x80004000)  returns 0x1000 (0013ms, 0401ms total)
T32A4 1079:743 JLINK_WriteMemEx(0x80005000, 0x1000 Bytes, ..., Flags = 0x02000000) - Data: 0D 02 12 68 00 23 FD F7 63 FC 0D 91 0C 90 48 F2 ... -- CPU_WriteMem(4096 bytes @ 0x80005000)  returns 0x1000 (0013ms, 0414ms total)
T32A4 1079:756 JLINK_WriteMemEx(0x80006000, 0x1000 Bytes, ..., Flags = 0x02000000) - Data: 28 A8 FD F7 3D FE 28 98 29 99 2A 9A 2B 9B DD F8 ... -- CPU_WriteMem(4096 bytes @ 0x80006000)  returns 0x1000 (0013ms, 0427ms total)
T32A4 1079:769 JLINK_WriteMemEx(0x80007000, 0x1000 Bytes, ..., Flags = 0x02000000) - Data: 4E F2 3C 60 C8 F2 50 00 C0 6B 01 F0 C5 F8 FF E7 ... -- CPU_WriteMem(4096 bytes @ 0x80007000)  returns 0x1000 (0013ms, 0440ms total)
T32A4 1079:782 JLINK_WriteMemEx(0x80008000, 0x1000 Bytes, ..., Flags = 0x02000000) - Data: FF 20 00 21 0E 91 0E 9A 04 F0 4A FF 2D 90 FF E7 ... -- CPU_WriteMem(4096 bytes @ 0x80008000)  returns 0x1000 (0013ms, 0453ms total)
T32A4 1079:796 JLINK_WriteMemEx(0x80009000, 0x1000 Bytes, ..., Flags = 0x02000000) - Data: 05 99 8D F8 1B 10 08 9A 38 23 93 80 08 9A 91 71 ... -- CPU_WriteMem(4096 bytes @ 0x80009000)  returns 0x1000 (0013ms, 0466ms total)
T32A4 1079:810 JLINK_WriteMemEx(0x8000A000, 0x1000 Bytes, ..., Flags = 0x02000000) - Data: 94 13 C8 F2 0F 03 53 F8 22 20 10 44 08 61 06 98 ... -- CPU_WriteMem(4096 bytes @ 0x8000A000)  returns 0x1000 (0013ms, 0479ms total)
T32A4 1079:825 JLINK_WriteMemEx(0x8000B000, 0x1000 Bytes, ..., Flags = 0x02000000) - Data: 03 00 40 8B B0 F5 88 7F 04 DD FF E7 4F F4 88 70 ... -- CPU_WriteMem(4096 bytes @ 0x8000B000)  returns 0x1000 (0013ms, 0492ms total)
T32A4 1079:841 JLINK_WriteMemEx(0x8000C000, 0x1000 Bytes, ..., Flags = 0x02000000) - Data: 05 98 80 6A 03 90 03 98 20 F4 40 30 03 90 04 98 ... -- CPU_WriteMem(4096 bytes @ 0x8000C000)  returns 0x1000 (0013ms, 0505ms total)
T32A4 1079:856 JLINK_WriteMemEx(0x8000D000, 0x1000 Bytes, ..., Flags = 0x02000000) - Data: FF E7 6F F0 01 00 6A 90 18 E0 70 98 00 69 03 30 ... -- CPU_WriteMem(4096 bytes @ 0x8000D000)  returns 0x1000 (0012ms, 0517ms total)
T32A4 1079:869 JLINK_WriteMemEx(0x8000E000, 0x1000 Bytes, ..., Flags = 0x02000000) - Data: A4 20 C0 F8 A0 10 80 98 6C 99 6D 9A 6E 9B DD F8 ... -- CPU_WriteMem(4096 bytes @ 0x8000E000)  returns 0x1000 (0012ms, 0529ms total)
T32A4 1079:882 JLINK_WriteMemEx(0x8000F000, 0x1000 Bytes, ..., Flags = 0x02000000) - Data: DD F8 40 E0 6C 46 C4 F8 0C E0 4F F0 20 0E C4 F8 ... -- CPU_WriteMem(4096 bytes @ 0x8000F000)  returns 0x1000 (0013ms, 0542ms total)
T32A4 1079:895 JLINK_WriteMemEx(0x80010000, 0x1000 Bytes, ..., Flags = 0x02000000) - Data: 02 90 01 98 82 00 42 EA 90 10 01 90 00 98 C2 00 ... -- CPU_WriteMem(4096 bytes @ 0x80010000)  returns 0x1000 (0012ms, 0554ms total)
T32A4 1079:908 JLINK_WriteMemEx(0x80011000, 0x1000 Bytes, ..., Flags = 0x02000000) - Data: CD F8 00 04 FF E7 E4 98 DD F8 00 14 40 5C 00 28 ... -- CPU_WriteMem(4096 bytes @ 0x80011000)  returns 0x1000 (0012ms, 0566ms total)
T32A4 1079:921 JLINK_WriteMemEx(0x80012000, 0x1000 Bytes, ..., Flags = 0x02000000) - Data: 4F 8F 4E F6 14 50 CE F2 00 00 01 68 21 F4 80 31 ... -- CPU_WriteMem(4096 bytes @ 0x80012000)  returns 0x1000 (0013ms, 0579ms total)
T32A4 1079:935 JLINK_WriteMemEx(0x80013000, 0x1000 Bytes, ..., Flags = 0x02000000) - Data: FF E7 40 F2 0A 70 07 90 0C E0 06 98 00 F0 08 FC ... -- CPU_WriteMem(4096 bytes @ 0x80013000)  returns 0x1000 (0012ms, 0591ms total)
T32A4 1079:948 JLINK_WriteMemEx(0x80014000, 0x1000 Bytes, ..., Flags = 0x02000000) - Data: 01 90 08 46 01 99 FE F7 EF FD 04 B0 80 BD 00 00 ... -- CPU_WriteMem(4096 bytes @ 0x80014000)  returns 0x1000 (0013ms, 0604ms total)
T32A4 1079:962 JLINK_WriteMemEx(0x80015000, 0x1000 Bytes, ..., Flags = 0x02000000) - Data: 3A 00 FF E7 FF E7 FF E7 9D F8 3A 30 9D F8 3B 00 ... -- CPU_WriteMem(4096 bytes @ 0x80015000)  returns 0x1000 (0012ms, 0616ms total)
T32A4 1079:975 JLINK_WriteMemEx(0x80016000, 0x1000 Bytes, ..., Flags = 0x02000000) - Data: 1A B0 70 BD 00 00 00 00 82 B0 0A 46 01 90 8D F8 ... -- CPU_WriteMem(4096 bytes @ 0x80016000)  returns 0x1000 (0013ms, 0629ms total)
T32A4 1079:989 JLINK_WriteMemEx(0x80017000, 0x1000 Bytes, ..., Flags = 0x02000000) - Data: 90 F8 28 10 40 68 80 68 40 79 81 42 05 DD FF E7 ... -- CPU_WriteMem(4096 bytes @ 0x80017000)  returns 0x1000 (0012ms, 0641ms total)
T32A4 1080:002 JLINK_WriteMemEx(0x80018000, 0x1000 Bytes, ..., Flags = 0x02000000) - Data: C1 71 2A 98 00 7A 2B 99 08 71 2B 98 08 30 2C 90 ... -- CPU_WriteMem(4096 bytes @ 0x80018000)  returns 0x1000 (0013ms, 0654ms total)
T32A4 1080:017 JLINK_WriteMemEx(0x80019000, 0x1000 Bytes, ..., Flags = 0x02000000) - Data: 52 F8 21 10 24 9A 23 AB 0D F1 88 0C 07 90 10 46 ... -- CPU_WriteMem(4096 bytes @ 0x80019000)  returns 0x1000 (0012ms, 0666ms total)
T32A4 1080:031 JLINK_WriteMemEx(0x8001A000, 0x1000 Bytes, ..., Flags = 0x02000000) - Data: 01 10 9D F8 03 10 88 40 01 99 49 68 C1 F8 AC 01 ... -- CPU_WriteMem(4096 bytes @ 0x8001A000)  returns 0x1000 (0013ms, 0679ms total)
T32A4 1080:045 JLINK_WriteMemEx(0x8001B000, 0x1000 Bytes, ..., Flags = 0x02000000) - Data: 8D F8 17 00 4B E0 03 98 80 78 00 F0 0F 00 8D F8 ... -- CPU_WriteMem(4096 bytes @ 0x8001B000)  returns 0x1000 (0013ms, 0692ms total)
T32A4 1080:060 JLINK_WriteMemEx(0x8001C000, 0x1000 Bytes, ..., Flags = 0x02000000) - Data: 37 00 0C 98 00 21 80 F8 67 10 FF E7 0C 98 90 F8 ... -- CPU_WriteMem(4096 bytes @ 0x8001C000)  returns 0x1000 (0013ms, 0705ms total)
T32A4 1080:075 JLINK_WriteMemEx(0x8001D000, 0x1000 Bytes, ..., Flags = 0x02000000) - Data: 00 28 0B D0 FF E7 07 98 41 68 09 68 07 22 01 AB ... -- CPU_WriteMem(4096 bytes @ 0x8001D000)  returns 0x1000 (0013ms, 0718ms total)
T32A4 1080:092 JLINK_WriteMemEx(0x8001E000, 0x1000 Bytes, ..., Flags = 0x02000000) - Data: 50 00 00 68 FC F7 44 FB 80 BD 00 00 00 00 00 00 ... -- CPU_WriteMem(4096 bytes @ 0x8001E000)  returns 0x1000 (0013ms, 0731ms total)
T32A4 1080:107 JLINK_WriteMemEx(0x8001F000, 0x1000 Bytes, ..., Flags = 0x02000000) - Data: FF E7 04 98 03 99 48 43 05 99 88 42 04 D2 FF E7 ... -- CPU_WriteMem(4096 bytes @ 0x8001F000)  returns 0x1000 (0012ms, 0743ms total)
T32A4 1080:122 JLINK_WriteMemEx(0x80020000, 0x1000 Bytes, ..., Flags = 0x02000000) - Data: FF E7 FF E7 0B 98 14 B0 80 BD 00 00 00 00 00 00 ... -- CPU_WriteMem(4096 bytes @ 0x80020000)  returns 0x1000 (0013ms, 0756ms total)
T32A4 1080:138 JLINK_WriteMemEx(0x80021000, 0x1000 Bytes, ..., Flags = 0x02000000) - Data: 01 F0 0F 01 4E F6 14 52 CE F2 00 02 88 54 FF E7 ... -- CPU_WriteMem(4096 bytes @ 0x80021000)  returns 0x1000 (0013ms, 0769ms total)
